
T25FC 000:330 SEGGER J-Link V4.98e Log File (0001ms, 0269ms total)
T25FC 000:330 DLL Compiled: May  5 2015 11:00:52 (0001ms, 0269ms total)
T25FC 000:330 Logging started @ 2019-03-04 22:59 (0001ms, 0269ms total)
T25FC 000:331 JLINK_SetWarnOutHandler(...) (0000ms, 0269ms total)
T25FC 000:331 JLINK_OpenEx(...)
Firmware: J-Link ARM V8 compiled Nov 28 2014 13:44:46
Hardware: V8.00
S/N: 68000020  returns O.K. (0267ms, 0536ms total)
T25FC 000:598 JLINK_SetErrorOutHandler(...) (0000ms, 0536ms total)
T25FC 000:598 JLINK_ExecCommand("ProjectFile = "C:\sensor\JLinkSettings.ini"", ...)  returns 0x00 (0001ms, 0537ms total)
T25FC 000:599 JLINK_ExecCommand("Device = STM32F042F6", ...)Device "STM32F042F6" selected.  returns 0x00 (0001ms, 0538ms total)
T25FC 000:600 JLINK_ExecCommand("DisableConnectionTimeout", ...)  returns 0x01 (0000ms, 0538ms total)
T25FC 000:600 JLINK_GetHardwareVersion()  returns 0x13880 (0000ms, 0538ms total)
T25FC 000:600 JLINK_GetDLLVersion()  returns 49805 (0000ms, 0538ms total)
T25FC 000:600 JLINK_GetFirmwareString(...) (0000ms, 0538ms total)
T25FC 000:602 JLINK_GetDLLVersion()  returns 49805 (0000ms, 0538ms total)
T25FC 000:602 JLINK_GetCompileDateTime() (0000ms, 0538ms total)
T25FC 000:603 JLINK_GetFirmwareString(...) (0000ms, 0538ms total)
T25FC 000:603 JLINK_GetHardwareVersion()  returns 0x13880 (0000ms, 0538ms total)
T25FC 000:604 JLINK_TIF_Select(JLINKARM_TIF_SWD)  returns 0x00 (0001ms, 0539ms total)
T25FC 000:605 JLINK_SetSpeed(5000) (0000ms, 0539ms total)
T25FC 000:605 JLINK_GetId() >0x108 TIF>Found SWD-DP with ID 0x0BB11477 >0x0D TIF> >0x28 TIF> >0x0D TIF> >0x28 TIF> >0x0D TIF> >0x21 TIF> >0x0D TIF> >0x28 TIF> >0x0D TIF> >0x28 TIF> >0x0D TIF> >0x28 TIF> >0x0D TIF> >0x21 TIF> >0x0D TIF> >0x21 TIF> >0x0D TIF> >0x28 TIF> >0x0D TIF> >0x21 TIF> >0x0D TIF> >0x21 TIF> >0x0D TIF> >0x28 TIF> >0x0D TIF> >0x28 TIF> >0x108 TIF>Found SWD-DP with ID 0x0BB11477 >0x0D TIF> >0x21 TIF> >0x0D TIF> >0x28 TIF> >0x0D TIF> >0x28 TIF> >0x0D TIF> >0x21 TIF> >0x0D TIF> >0x28 TIF>
 >0x0D TIF> >0x21 TIF> >0x0D TIF> >0x21 TIF> >0x0D TIF> >0x21 TIF> >0x0D TIF> >0x21 TIF> >0x0D TIF> >0x28 TIF> >0x0D TIF> >0x28 TIF> >0x0D TIF> >0x21 TIF> >0x0D TIF> >0x28 TIF> >0x0D TIF> >0x28 TIF> >0x0D TIF> >0x28 TIF> >0x0D TIF> >0x21 TIF> >0x0D TIF> >0x21 TIF> >0x0D TIF> >0x28 TIF> >0x0D TIF> >0x21 TIF> >0x0D TIF> >0x21 TIF>Found Cortex-M0 r0p0, Little endian. -- CPU_WriteMem(4 bytes @ 0xE0002000) -- CPU_ReadMem(4 bytes @ 0xE000EDF0) -- CPU_ReadMem(4 bytes @ 0xE0002000)
FPUnit: 4 code (BP) slots and 0 literal slots -- CPU_ReadMem(4 bytes @ 0xE000EDFC) -- CPU_ReadMem(4 bytes @ 0xE0001000) -- CPU_WriteMem(4 bytes @ 0xE0001000)CoreSight components:ROMTbl 0 @ E00FF000 -- CPU_ReadMem(16 bytes @ 0xE00FF000) -- CPU_ReadMem(16 bytes @ 0xE000EFF0) -- CPU_ReadMem(16 bytes @ 0xE000EFE0)ROMTbl 0 [0]: FFF0F000, CID: B105E00D, PID: 000BB008 SCS -- CPU_ReadMem(16 bytes @ 0xE0001FF0) -- CPU_ReadMem(16 bytes @ 0xE0001FE0)ROMTbl 0 [1]: FFF02000, CID: B105E00D, PID: 000BB00A DWT
 -- CPU_ReadMem(16 bytes @ 0xE0002FF0) -- CPU_ReadMem(16 bytes @ 0xE0002FE0)ROMTbl 0 [2]: FFF03000, CID: B105E00D, PID: 000BB00B FPB >0x0D TIF> >0x21 TIF>  returns 0x0BB11477 (0028ms, 0567ms total)
T25FC 000:633 JLINK_GetDLLVersion()  returns 49805 (0000ms, 0567ms total)
T25FC 000:633 JLINK_CORE_GetFound()  returns 0x60000FF (0000ms, 0567ms total)
T25FC 000:633 JLINK_GetDebugInfo(0x100) -- Value=0xE00FF003  returns 0x00 (0000ms, 0567ms total)
T25FC 000:634 JLINK_ReadMem (0xE00FF000, 0x0020 Bytes, ...) -- CPU is running -- CPU_ReadMem(32 bytes @ 0xE00FF000) - Data: 03 F0 F0 FF 03 20 F0 FF 03 30 F0 FF 00 00 00 00 ...  returns 0x00 (0000ms, 0567ms total)
T25FC 000:634 JLINK_ReadMem (0xE000EFF0, 0x0010 Bytes, ...) -- CPU is running -- CPU_ReadMem(16 bytes @ 0xE000EFF0) - Data: 0D 00 00 00 E0 00 00 00 05 00 00 00 B1 00 00 00  returns 0x00 (0001ms, 0568ms total)
T25FC 000:635 JLINK_ReadMem (0xE000EFD0, 0x0020 Bytes, ...) -- CPU is running -- CPU_ReadMem(32 bytes @ 0xE000EFD0) - Data: 04 00 00 00 00 00 00 00 00 00 00 00 00 00 00 00 ...  returns 0x00 (0000ms, 0568ms total)
T25FC 000:636 JLINK_ReadMem (0xE0001FF0, 0x0010 Bytes, ...) -- CPU is running -- CPU_ReadMem(16 bytes @ 0xE0001FF0) - Data: 0D 00 00 00 E0 00 00 00 05 00 00 00 B1 00 00 00  returns 0x00 (0000ms, 0569ms total)
T25FC 000:636 JLINK_ReadMem (0xE0001FD0, 0x0020 Bytes, ...) -- CPU is running -- CPU_ReadMem(32 bytes @ 0xE0001FD0) - Data: 04 00 00 00 00 00 00 00 00 00 00 00 00 00 00 00 ...  returns 0x00 (0001ms, 0570ms total)
T25FC 000:637 JLINK_ReadMem (0xE0002FF0, 0x0010 Bytes, ...) -- CPU is running -- CPU_ReadMem(16 bytes @ 0xE0002FF0) - Data: 0D 00 00 00 E0 00 00 00 05 00 00 00 B1 00 00 00  returns 0x00 (0000ms, 0570ms total)
T25FC 000:637 JLINK_ReadMem (0xE0002FD0, 0x0020 Bytes, ...) -- CPU is running -- CPU_ReadMem(32 bytes @ 0xE0002FD0) - Data: 04 00 00 00 00 00 00 00 00 00 00 00 00 00 00 00 ...  returns 0x00 (0001ms, 0571ms total)
T25FC 000:638 JLINK_ReadMemU32(0xE000ED00, 0x0001 Items, ...) -- CPU is running -- CPU_ReadMem(4 bytes @ 0xE000ED00) - Data: 00 C2 0C 41  returns 0x01 (0000ms, 0571ms total)
T25FC 000:639 JLINK_SetResetType(JLINKARM_RESET_TYPE_ADI)  returns JLINKARM_RESET_TYPE_NORMAL (0000ms, 0571ms total)
T25FC 000:639 JLINK_Reset() -- CPU is running -- CPU_WriteMem(4 bytes @ 0xE000EDF0) -- CPU is running -- CPU_WriteMem(4 bytes @ 0xE000EDFC) -- CPU_WriteMem(4 bytes @ 0xE000EDF0) -- CPU_WriteMem(4 bytes @ 0xE000EDFC) -- CPU_ReadMem(4 bytes @ 0xE000EDF0) -- CPU_WriteMem(4 bytes @ 0xE000EDFC) -- CPU_WriteMem(4 bytes @ 0xE000ED0C) -- CPU_ReadMem(4 bytes @ 0xE000EDF0) -- CPU_ReadMem(4 bytes @ 0xE000EDF0) -- CPU_WriteMem(4 bytes @ 0xE000EDF0) -- CPU_WriteMem(4 bytes @ 0xE000EDFC) -- CPU is running
 -- CPU_ReadMem(4 bytes @ 0xE000EDF0) -- CPU_WriteMem(4 bytes @ 0xE0002000) -- CPU_ReadMem(4 bytes @ 0xE000EDFC) -- CPU_ReadMem(4 bytes @ 0xE0001000) -- CPU_WriteMem(4 bytes @ 0xE0001000) (0153ms, 0724ms total)
T25FC 000:792 JLINK_ReadReg(R15 (PC))  returns 0x08000164 (0000ms, 0724ms total)
T25FC 000:792 JLINK_ReadReg(XPSR)  returns 0xC1000000 (0000ms, 0724ms total)
T25FC 000:792 JLINK_Halt()  returns 0x00 (0000ms, 0724ms total)
T25FC 000:792 JLINK_IsHalted()  returns TRUE (0000ms, 0724ms total)
T25FC 000:792 JLINK_ReadMemU32(0xE000EDF0, 0x0001 Items, ...) -- CPU_ReadMem(4 bytes @ 0xE000EDF0) - Data: 03 00 03 00  returns 0x01 (0001ms, 0725ms total)
T25FC 000:793 JLINK_WriteU32(0xE000EDF0, 0xA05F0003) -- CPU_WriteMem(4 bytes @ 0xE000EDF0)  returns 0x00 (0000ms, 0725ms total)
T25FC 000:793 JLINK_WriteU32(0xE000EDFC, 0x01000000) -- CPU_WriteMem(4 bytes @ 0xE000EDFC)  returns 0x00 (0002ms, 0727ms total)
T25FC 000:795 JLINK_GetHWStatus(...)  returns 0x00 (0001ms, 0728ms total)
T25FC 000:796 JLINK_GetNumBPUnits(Type = 0xFFFFFF00)  returns 0x04 (0000ms, 0728ms total)
T25FC 000:796 JLINK_GetNumBPUnits(Type = 0xF0)  returns 0x2000 (0000ms, 0728ms total)
T25FC 000:796 JLINK_GetNumWPUnits()  returns 0x02 (0000ms, 0728ms total)
T25FC 000:796 JLINK_GetSpeed()  returns 0xFA0 (0001ms, 0729ms total)
T25FC 000:797 JLINK_ReadMemU32(0xE000E004, 0x0001 Items, ...) -- CPU_ReadMem(4 bytes @ 0xE000E004) - Data: 00 00 00 00  returns 0x01 (0000ms, 0729ms total)
T25FC 000:797 JLINK_ReadReg(R15 (PC))  returns 0x08000164 (0000ms, 0729ms total)
T25FC 000:797 JLINK_ReadReg(XPSR)  returns 0xC1000000 (0000ms, 0729ms total)
T25FC 000:917 JLINK_SetResetType(JLINKARM_RESET_TYPE_ADI)  returns JLINKARM_RESET_TYPE_ADI (0000ms, 0729ms total)
T25FC 000:917 JLINK_Reset() -- CPU_WriteMem(4 bytes @ 0xE000EDF0) -- CPU_WriteMem(4 bytes @ 0xE000EDFC) -- CPU_WriteMem(4 bytes @ 0xE000EDF0) -- CPU_WriteMem(4 bytes @ 0xE000EDFC) -- CPU_ReadMem(4 bytes @ 0xE000EDF0) -- CPU_WriteMem(4 bytes @ 0xE000EDFC) -- CPU_WriteMem(4 bytes @ 0xE000ED0C) -- CPU_ReadMem(4 bytes @ 0xE000EDF0) -- CPU_ReadMem(4 bytes @ 0xE000EDF0) -- CPU_WriteMem(4 bytes @ 0xE000EDF0) -- CPU_WriteMem(4 bytes @ 0xE000EDFC) -- CPU is running -- CPU_ReadMem(4 bytes @ 0xE000EDF0)
 -- CPU_WriteMem(4 bytes @ 0xE0002000) -- CPU_ReadMem(4 bytes @ 0xE000EDFC) -- CPU_ReadMem(4 bytes @ 0xE0001000) -- CPU_WriteMem(4 bytes @ 0xE0001000) (0154ms, 0883ms total)
T25FC 001:071 JLINK_ReadReg(R15 (PC))  returns 0x08000164 (0000ms, 0883ms total)
T25FC 001:071 JLINK_ReadReg(XPSR)  returns 0xC1000000 (0000ms, 0883ms total)
T25FC 001:072 JLINK_ReadMem (0x08000164, 0x003C Bytes, ...) -- CPU_ReadMem(128 bytes @ 0x08000140) -- Updating C cache (128 bytes @ 0x08000140) -- Read from C cache (60 bytes @ 0x08000164) - Data: 0F 48 80 F3 08 88 0F 48 01 68 09 0E 0E 4A 91 42 ...  returns 0x00 (0002ms, 0885ms total)
T25FC 001:420 JLINK_ReadMem (0x40012400, 0x0014 Bytes, ...) -- CPU_ReadMem(20 bytes @ 0x40012400) - Data: 00 00 00 00 00 00 00 00 00 00 00 00 00 00 00 00 ...  returns 0x00 (0001ms, 0886ms total)
T25FC 001:421 JLINK_ReadMem (0x40012414, 0x0004 Bytes, ...) -- CPU_ReadMem(4 bytes @ 0x40012414) - Data: 00 00 00 00  returns 0x00 (0001ms, 0887ms total)
T25FC 001:422 JLINK_ReadMem (0x40012420, 0x0004 Bytes, ...) -- CPU_ReadMem(4 bytes @ 0x40012420) - Data: 00 00 00 00  returns 0x00 (0000ms, 0887ms total)
T25FC 001:422 JLINK_ReadMem (0x40012428, 0x0004 Bytes, ...) -- CPU_ReadMem(4 bytes @ 0x40012428) - Data: 00 00 00 00  returns 0x00 (0001ms, 0888ms total)
T25FC 001:423 JLINK_ReadMem (0x40012440, 0x0004 Bytes, ...) -- CPU_ReadMem(4 bytes @ 0x40012440) - Data: 00 00 00 00  returns 0x00 (0000ms, 0888ms total)
T25FC 001:423 JLINK_ReadMem (0x40012708, 0x0004 Bytes, ...) -- CPU_ReadMem(4 bytes @ 0x40012708) - Data: 00 00 00 00  returns 0x00 (0001ms, 0889ms total)
T25FC 001:514 JLINK_ReadMem (0x40006400, 0x001C Bytes, ...) -- CPU_ReadMem(28 bytes @ 0x40006400) - Data: 02 00 01 00 0A 0C 00 00 00 00 00 1C 00 00 00 00 ...  returns 0x00 (0001ms, 0890ms total)
T25FC 001:515 JLINK_ReadMem (0x4000641C, 0x0004 Bytes, ...) -- CPU_ReadMem(4 bytes @ 0x4000641C) - Data: 00 00 23 01  returns 0x00 (0001ms, 0891ms total)
T25FC 001:516 JLINK_ReadMem (0x40006580, 0x004C Bytes, ...) -- CPU_ReadMem(76 bytes @ 0x40006580) - Data: 00 CF 00 00 00 CF 00 00 00 CF 00 00 00 CF 00 00 ...  returns 0x00 (0002ms, 0893ms total)
T25FC 001:518 JLINK_ReadMem (0x400065CC, 0x0004 Bytes, ...) -- CPU_ReadMem(4 bytes @ 0x400065CC) - Data: 00 CF 00 00  returns 0x00 (0000ms, 0893ms total)
T25FC 001:518 JLINK_ReadMem (0x40006600, 0x0004 Bytes, ...) -- CPU_ReadMem(4 bytes @ 0x40006600) - Data: 01 0E 1C 2A  returns 0x00 (0000ms, 0893ms total)
T25FC 001:518 JLINK_ReadMem (0x40006604, 0x0004 Bytes, ...) -- CPU_ReadMem(4 bytes @ 0x40006604) - Data: 00 00 00 00  returns 0x00 (0000ms, 0893ms total)
T25FC 001:518 JLINK_ReadMem (0x4000660C, 0x0004 Bytes, ...) -- CPU_ReadMem(4 bytes @ 0x4000660C) - Data: 00 00 00 00  returns 0x00 (0001ms, 0894ms total)
T25FC 001:519 JLINK_ReadMem (0x40006614, 0x0004 Bytes, ...) -- CPU_ReadMem(4 bytes @ 0x40006614) - Data: 00 00 00 00  returns 0x00 (0000ms, 0894ms total)
T25FC 001:519 JLINK_ReadMem (0x4000661C, 0x0004 Bytes, ...) -- CPU_ReadMem(4 bytes @ 0x4000661C) - Data: 00 00 00 00  returns 0x00 (0001ms, 0895ms total)
T25FC 001:520 JLINK_ReadMem (0x40006640, 0x00DC Bytes, ...) -- CPU_ReadMem(220 bytes @ 0x40006640) - Data: 00 CF 00 00 00 CF 00 00 00 CF 00 00 00 CF 00 00 ...  returns 0x00 (0002ms, 0897ms total)
T25FC 001:522 JLINK_ReadMem (0x4000671C, 0x0004 Bytes, ...) -- CPU_ReadMem(4 bytes @ 0x4000671C) - Data: 00 CF 00 00  returns 0x00 (0000ms, 0897ms total)
T25FC 001:631 JLINK_ReadMem (0x40015800, 0x000C Bytes, ...) -- CPU_ReadMem(12 bytes @ 0x40015800) - Data: 45 64 00 10 00 00 00 00 00 00 00 00  returns 0x00 (0001ms, 0898ms total)
T25FC 001:632 JLINK_ReadMem (0x4001580C, 0x0004 Bytes, ...) -- CPU_ReadMem(4 bytes @ 0x4001580C) - Data: 00 00 00 00  returns 0x00 (0000ms, 0898ms total)
T25FC 001:716 JLINK_ReadMem (0x40021000, 0x0034 Bytes, ...) -- CPU_ReadMem(52 bytes @ 0x40021000) - Data: 83 58 00 00 00 00 00 00 00 00 00 00 00 00 00 00 ...  returns 0x00 (0000ms, 0898ms total)
T25FC 001:717 JLINK_ReadMem (0x40021034, 0x0004 Bytes, ...) -- CPU_ReadMem(4 bytes @ 0x40021034) - Data: 80 77 00 96  returns 0x00 (0000ms, 0898ms total)
T25FC 001:804 JLINK_ReadMem (0x40010000, 0x0004 Bytes, ...) -- CPU_ReadMem(4 bytes @ 0x40010000) - Data: 00 00 00 00  returns 0x00 (0001ms, 0899ms total)
T25FC 001:805 JLINK_ReadMem (0x40010008, 0x0010 Bytes, ...) -- CPU_ReadMem(16 bytes @ 0x40010008) - Data: 00 00 00 00 00 00 00 00 00 00 00 00 00 00 00 00  returns 0x00 (0000ms, 0899ms total)
T25FC 001:805 JLINK_ReadMem (0x40010018, 0x0004 Bytes, ...) -- CPU_ReadMem(4 bytes @ 0x40010018) - Data: 00 00 00 00  returns 0x00 (0001ms, 0900ms total)
T25FC 001:882 JLINK_ReadMem (0x40012C00, 0x0010 Bytes, ...) -- CPU_ReadMem(16 bytes @ 0x40012C00) - Data: 00 00 00 00 00 00 00 00 00 00 00 00 00 00 00 00  returns 0x00 (0001ms, 0901ms total)
T25FC 001:883 JLINK_ReadMem (0x40012C10, 0x0004 Bytes, ...) -- CPU_ReadMem(4 bytes @ 0x40012C10) - Data: 00 00 00 00  returns 0x00 (0001ms, 0902ms total)
T25FC 001:884 JLINK_ReadMem (0x40012C18, 0x0034 Bytes, ...) -- CPU_ReadMem(52 bytes @ 0x40012C18) - Data: 00 00 00 00 00 00 00 00 00 00 00 00 00 00 00 00 ...  returns 0x00 (0000ms, 0902ms total)
T25FC 001:884 JLINK_ReadMem (0x40012C4C, 0x0004 Bytes, ...) -- CPU_ReadMem(4 bytes @ 0x40012C4C) - Data: 00 00 00 00  returns 0x00 (0001ms, 0903ms total)
T25FC 004:591 JLINK_ReadMem (0x00000000, 0x0384 Bytes, ...) -- CPU_ReadMem(4 bytes @ 0x00000004) -- CPU_ReadMem(320 bytes @ 0x08000000) -- Updating C cache (320 bytes @ 0x08000000) -- CPU_ReadMem(512 bytes @ 0x080001C0) -- Updating C cache (512 bytes @ 0x080001C0) -- Read from C cache (900 bytes @ 0x08000000) - Data: F0 06 00 20 65 01 00 08 75 19 00 08 89 17 00 08 ...  returns 0x00 (0008ms, 0911ms total)
T25FC 005:296 JLINK_ReadMem (0x20000014, 0x0002 Bytes, ...) -- CPU_ReadMem(64 bytes @ 0x20000000) -- Updating C cache (64 bytes @ 0x20000000) -- Read from C cache (2 bytes @ 0x20000014) - Data: FA D1  returns 0x00 (0001ms, 0912ms total)
T25FC 005:300 JLINK_ReadMem (0x20000016, 0x0002 Bytes, ...) -- Read from C cache (2 bytes @ 0x20000016) - Data: 49 1C  returns 0x00 (0000ms, 0912ms total)
T25FC 005:302 JLINK_ReadMem (0x2000001C, 0x0004 Bytes, ...) -- Read from C cache (4 bytes @ 0x2000001C) - Data: F2 D1 70 47  returns 0x00 (0000ms, 0912ms total)
T25FC 005:304 JLINK_ReadMem (0x20000018, 0x0004 Bytes, ...) -- Read from C cache (4 bytes @ 0x20000018) - Data: 52 1E 00 2A  returns 0x00 (0000ms, 0912ms total)
T25FC 005:308 JLINK_ReadMem (0x20000030, 0x0001 Bytes, ...) -- Read from C cache (1 bytes @ 0x20000030) - Data: F7  returns 0x00 (0000ms, 0912ms total)
T25FC 005:350 JLINK_ReadMem (0x00000000, 0x0400 Bytes, ...) -- CPU_ReadMem(64 bytes @ 0x080003C0) -- Updating C cache (64 bytes @ 0x080003C0) -- Read from C cache (1024 bytes @ 0x08000000) - Data: F0 06 00 20 65 01 00 08 75 19 00 08 89 17 00 08 ...  returns 0x00 (0001ms, 0913ms total)
T25FC 005:351 JLINK_ReadMem (0x00000400, 0x0201 Bytes, ...) -- CPU_ReadMem(576 bytes @ 0x08000400) -- Updating C cache (576 bytes @ 0x08000400) -- Read from C cache (513 bytes @ 0x08000400) - Data: 29 48 00 F0 05 F9 2E 49 09 78 49 00 2D 4A 50 52 ...  returns 0x00 (0005ms, 0918ms total)
T0EA0 005:595 JLINK_SetBPEx(Addr = 0x080021F8, Type = 0xFFFFFFF2)  returns 0x00000001 (0000ms, 0918ms total)
T0EA0 005:595 JLINK_Go() -- CPU_WriteMem(4 bytes @ 0xE0002000) -- CPU_ReadMem(4 bytes @ 0xE0001000) -- CPU_WriteMem(4 bytes @ 0xE0001000) -- CPU_WriteMem(4 bytes @ 0xE0002008) -- CPU_WriteMem(4 bytes @ 0xE000200C) -- CPU_WriteMem(4 bytes @ 0xE0002010) -- CPU_WriteMem(4 bytes @ 0xE0002014) -- CPU_WriteMem(4 bytes @ 0xE0001004) (0004ms, 0922ms total)
T0EA0 005:700 JLINK_IsHalted()  returns TRUE (0002ms, 0924ms total)
T0EA0 005:702 JLINK_Halt()  returns 0x00 (0000ms, 0922ms total)
T0EA0 005:702 JLINK_IsHalted()  returns TRUE (0000ms, 0922ms total)
T0EA0 005:702 JLINK_IsHalted()  returns TRUE (0000ms, 0922ms total)
T0EA0 005:702 JLINK_IsHalted()  returns TRUE (0000ms, 0922ms total)
T0EA0 005:702 JLINK_ReadReg(R15 (PC))  returns 0x080021F8 (0000ms, 0922ms total)
T0EA0 005:702 JLINK_ReadReg(XPSR)  returns 0x01000000 (0000ms, 0922ms total)
T0EA0 005:702 JLINK_ClrBPEx(BPHandle = 0x00000001)  returns 0x00 (0001ms, 0923ms total)
T0EA0 005:703 JLINK_ReadMemU32(0xE000ED30, 0x0001 Items, ...) -- CPU_ReadMem(4 bytes @ 0xE000ED30) - Data: 03 00 00 00  returns 0x01 (0000ms, 0923ms total)
T0EA0 005:703 JLINK_ReadMemU32(0xE0001028, 0x0001 Items, ...) -- CPU_ReadMem(4 bytes @ 0xE0001028) - Data: 00 00 00 00  returns 0x01 (0001ms, 0924ms total)
T0EA0 005:704 JLINK_ReadMemU32(0xE0001038, 0x0001 Items, ...) -- CPU_ReadMem(4 bytes @ 0xE0001038) - Data: 00 00 00 00  returns 0x01 (0000ms, 0924ms total)
T0EA0 005:705 JLINK_ReadReg(R0)  returns 0x200000F0 (0000ms, 0924ms total)
T0EA0 005:705 JLINK_ReadReg(R1)  returns 0x200002F0 (0000ms, 0924ms total)
T0EA0 005:705 JLINK_ReadReg(R2)  returns 0x200002F0 (0000ms, 0924ms total)
T0EA0 005:705 JLINK_ReadReg(R3)  returns 0x200002F0 (0000ms, 0924ms total)
T0EA0 005:705 JLINK_ReadReg(R4)  returns 0x08002338 (0000ms, 0924ms total)
T0EA0 005:705 JLINK_ReadReg(R5)  returns 0x20000090 (0000ms, 0924ms total)
T0EA0 005:705 JLINK_ReadReg(R6)  returns 0x00000000 (0000ms, 0924ms total)
T0EA0 005:705 JLINK_ReadReg(R7)  returns 0x00000000 (0001ms, 0925ms total)
T0EA0 005:706 JLINK_ReadReg(R8)  returns 0xFFFFFFFF (0000ms, 0925ms total)
T0EA0 005:706 JLINK_ReadReg(R9)  returns 0xFFFFFFFF (0000ms, 0925ms total)
T0EA0 005:706 JLINK_ReadReg(R10)  returns 0x08002338 (0000ms, 0925ms total)
T0EA0 005:706 JLINK_ReadReg(R11)  returns 0x08002338 (0000ms, 0925ms total)
T0EA0 005:706 JLINK_ReadReg(R12)  returns 0xFFFFFFFF (0000ms, 0925ms total)
T0EA0 005:706 JLINK_ReadReg(R13 (SP))  returns 0x200006F0 (0000ms, 0925ms total)
T0EA0 005:706 JLINK_ReadReg(R14)  returns 0x08000153 (0000ms, 0925ms total)
T0EA0 005:706 JLINK_ReadReg(R15 (PC))  returns 0x080021F8 (0000ms, 0925ms total)
T0EA0 005:706 JLINK_ReadReg(XPSR)  returns 0x01000000 (0000ms, 0925ms total)
T0EA0 005:706 JLINK_ReadReg(MSP)  returns 0x200006F0 (0000ms, 0925ms total)
T0EA0 005:707 JLINK_ReadReg(PSP)  returns 0xFFFFFFFC (0000ms, 0926ms total)
T0EA0 005:707 JLINK_ReadReg(CFBP)  returns 0x00000000 (0000ms, 0926ms total)
T25FC 005:707 JLINK_ReadMem (0x20000014, 0x0002 Bytes, ...) -- CPU_ReadMem(64 bytes @ 0x20000000) -- Updating C cache (64 bytes @ 0x20000000) -- Read from C cache (2 bytes @ 0x20000014) - Data: 00 00  returns 0x00 (0001ms, 0927ms total)
T25FC 005:711 JLINK_ReadMem (0x20000016, 0x0002 Bytes, ...) -- Read from C cache (2 bytes @ 0x20000016) - Data: 00 00  returns 0x00 (0000ms, 0927ms total)
T25FC 005:711 JLINK_ReadMem (0x2000001C, 0x0004 Bytes, ...) -- Read from C cache (4 bytes @ 0x2000001C) - Data: 00 00 00 00  returns 0x00 (0000ms, 0927ms total)
T25FC 005:712 JLINK_ReadMem (0x20000018, 0x0004 Bytes, ...) -- Read from C cache (4 bytes @ 0x20000018) - Data: 00 00 00 00  returns 0x00 (0000ms, 0927ms total)
T25FC 005:712 JLINK_ReadMem (0x20000030, 0x0001 Bytes, ...) -- Read from C cache (1 bytes @ 0x20000030) - Data: 00  returns 0x00 (0000ms, 0927ms total)
T25FC 005:713 JLINK_ReadMem (0x40021000, 0x0034 Bytes, ...) -- CPU_ReadMem(52 bytes @ 0x40021000) - Data: 83 58 00 00 00 00 00 00 00 00 00 00 00 00 00 00 ...  returns 0x00 (0001ms, 0928ms total)
T25FC 005:714 JLINK_ReadMem (0x40021034, 0x0004 Bytes, ...) -- CPU_ReadMem(4 bytes @ 0x40021034) - Data: 80 77 00 96  returns 0x00 (0000ms, 0928ms total)
T25FC 005:715 JLINK_ReadMem (0x40012C00, 0x0010 Bytes, ...) -- CPU_ReadMem(16 bytes @ 0x40012C00) - Data: 00 00 00 00 00 00 00 00 00 00 00 00 00 00 00 00  returns 0x00 (0000ms, 0928ms total)
T25FC 005:715 JLINK_ReadMem (0x40012C10, 0x0004 Bytes, ...) -- CPU_ReadMem(4 bytes @ 0x40012C10) - Data: 00 00 00 00  returns 0x00 (0001ms, 0929ms total)
T25FC 005:716 JLINK_ReadMem (0x40012C18, 0x0034 Bytes, ...) -- CPU_ReadMem(52 bytes @ 0x40012C18) - Data: 00 00 00 00 00 00 00 00 00 00 00 00 00 00 00 00 ...  returns 0x00 (0000ms, 0929ms total)
T25FC 005:717 JLINK_ReadMem (0x40012C4C, 0x0004 Bytes, ...) -- CPU_ReadMem(4 bytes @ 0x40012C4C) - Data: 00 00 00 00  returns 0x00 (0000ms, 0930ms total)
T25FC 005:717 JLINK_ReadMem (0x40006400, 0x001C Bytes, ...) -- CPU_ReadMem(28 bytes @ 0x40006400) - Data: 02 00 01 00 0A 0C 00 00 00 00 00 1C 00 00 00 00 ...  returns 0x00 (0001ms, 0931ms total)
T25FC 005:718 JLINK_ReadMem (0x4000641C, 0x0004 Bytes, ...) -- CPU_ReadMem(4 bytes @ 0x4000641C) - Data: 00 00 23 01  returns 0x00 (0001ms, 0932ms total)
T25FC 005:719 JLINK_ReadMem (0x40006580, 0x004C Bytes, ...) -- CPU_ReadMem(76 bytes @ 0x40006580) - Data: 00 CF 00 00 00 CF 00 00 00 CF 00 00 00 CF 00 00 ...  returns 0x00 (0000ms, 0932ms total)
T25FC 005:719 JLINK_ReadMem (0x400065CC, 0x0004 Bytes, ...) -- CPU_ReadMem(4 bytes @ 0x400065CC) - Data: 00 CF 00 00  returns 0x00 (0001ms, 0933ms total)
T25FC 005:720 JLINK_ReadMem (0x40006600, 0x0004 Bytes, ...) -- CPU_ReadMem(4 bytes @ 0x40006600) - Data: 01 0E 1C 2A  returns 0x00 (0000ms, 0933ms total)
T25FC 005:720 JLINK_ReadMem (0x40006604, 0x0004 Bytes, ...) -- CPU_ReadMem(4 bytes @ 0x40006604) - Data: 00 00 00 00  returns 0x00 (0001ms, 0934ms total)
T25FC 005:721 JLINK_ReadMem (0x4000660C, 0x0004 Bytes, ...) -- CPU_ReadMem(4 bytes @ 0x4000660C) - Data: 00 00 00 00  returns 0x00 (0000ms, 0934ms total)
T25FC 005:721 JLINK_ReadMem (0x40006614, 0x0004 Bytes, ...) -- CPU_ReadMem(4 bytes @ 0x40006614) - Data: 00 00 00 00  returns 0x00 (0001ms, 0935ms total)
T25FC 005:722 JLINK_ReadMem (0x4000661C, 0x0004 Bytes, ...) -- CPU_ReadMem(4 bytes @ 0x4000661C) - Data: 00 00 00 00  returns 0x00 (0000ms, 0935ms total)
T25FC 005:722 JLINK_ReadMem (0x40006640, 0x00DC Bytes, ...) -- CPU_ReadMem(220 bytes @ 0x40006640) - Data: 00 CF 00 00 00 CF 00 00 00 CF 00 00 00 CF 00 00 ...  returns 0x00 (0002ms, 0937ms total)
T25FC 005:724 JLINK_ReadMem (0x4000671C, 0x0004 Bytes, ...) -- CPU_ReadMem(4 bytes @ 0x4000671C) - Data: 00 CF 00 00  returns 0x00 (0001ms, 0938ms total)
T25FC 005:728 JLINK_ReadMem (0x40012400, 0x0014 Bytes, ...) -- CPU_ReadMem(20 bytes @ 0x40012400) - Data: 00 00 00 00 00 00 00 00 00 00 00 00 00 00 00 00 ...  returns 0x00 (0001ms, 0939ms total)
T25FC 005:729 JLINK_ReadMem (0x40012414, 0x0004 Bytes, ...) -- CPU_ReadMem(4 bytes @ 0x40012414) - Data: 00 00 00 00  returns 0x00 (0000ms, 0939ms total)
T25FC 005:729 JLINK_ReadMem (0x40012420, 0x0004 Bytes, ...) -- CPU_ReadMem(4 bytes @ 0x40012420) - Data: 00 00 00 00  returns 0x00 (0001ms, 0940ms total)
T25FC 005:730 JLINK_ReadMem (0x40012428, 0x0004 Bytes, ...) -- CPU_ReadMem(4 bytes @ 0x40012428) - Data: 00 00 00 00  returns 0x00 (0000ms, 0940ms total)
T25FC 005:730 JLINK_ReadMem (0x40012440, 0x0004 Bytes, ...) -- CPU_ReadMem(4 bytes @ 0x40012440) - Data: 00 00 00 00  returns 0x00 (0001ms, 0941ms total)
T25FC 005:731 JLINK_ReadMem (0x40012708, 0x0004 Bytes, ...) -- CPU_ReadMem(4 bytes @ 0x40012708) - Data: 00 00 00 00  returns 0x00 (0000ms, 0941ms total)
T25FC 005:731 JLINK_ReadMem (0x40015800, 0x000C Bytes, ...) -- CPU_ReadMem(12 bytes @ 0x40015800) - Data: 45 64 00 10 00 00 00 00 00 00 00 00  returns 0x00 (0001ms, 0942ms total)
T25FC 005:732 JLINK_ReadMem (0x4001580C, 0x0004 Bytes, ...) -- CPU_ReadMem(4 bytes @ 0x4001580C) - Data: 00 00 00 00  returns 0x00 (0000ms, 0942ms total)
T25FC 005:733 JLINK_ReadMem (0x40010000, 0x0004 Bytes, ...) -- CPU_ReadMem(4 bytes @ 0x40010000) - Data: 00 00 00 00  returns 0x00 (0000ms, 0942ms total)
T25FC 005:733 JLINK_ReadMem (0x40010008, 0x0010 Bytes, ...) -- CPU_ReadMem(16 bytes @ 0x40010008) - Data: 00 00 00 00 00 00 00 00 00 00 00 00 00 00 00 00  returns 0x00 (0001ms, 0943ms total)
T25FC 005:734 JLINK_ReadMem (0x40010018, 0x0004 Bytes, ...) -- CPU_ReadMem(4 bytes @ 0x40010018) - Data: 00 00 00 00  returns 0x00 (0000ms, 0943ms total)
T25FC 005:735 JLINK_ReadMem (0x080021F8, 0x003C Bytes, ...) -- CPU_ReadMem(128 bytes @ 0x080021C0) -- Updating C cache (128 bytes @ 0x080021C0) -- Read from C cache (60 bytes @ 0x080021F8) - Data: 1C B5 FF F7 0B FB FF F7 C5 FA FF F7 8D FB 01 21 ...  returns 0x00 (0001ms, 0944ms total)
T0EA0 008:642 JLINK_Go() -- CPU_ReadMem(4 bytes @ 0xE0001000) -- CPU_WriteMem(4 bytes @ 0xE0001000) -- CPU_WriteMem(4 bytes @ 0xE0002008) (0003ms, 0947ms total)
T0EA0 008:746 JLINK_IsHalted()  returns FALSE (0000ms, 0947ms total)
T0EA0 008:848 JLINK_IsHalted()  returns FALSE (0000ms, 0947ms total)
T0EA0 008:949 JLINK_IsHalted()  returns FALSE (0000ms, 0947ms total)
T0EA0 009:050 JLINK_IsHalted()  returns FALSE (0000ms, 0947ms total)
T0EA0 009:151 JLINK_IsHalted()  returns FALSE (0000ms, 0947ms total)
T25FC 009:252 JLINK_ReadMem (0x20000014, 0x0002 Bytes, ...) -- CPU is running -- CPU_ReadMem(2 bytes @ 0x20000014) - Data: 00 00  returns 0x00 (0000ms, 0947ms total)
T25FC 009:256 JLINK_ReadMem (0x20000016, 0x0002 Bytes, ...) -- CPU is running -- CPU_ReadMem(2 bytes @ 0x20000016) - Data: 00 00  returns 0x00 (0000ms, 0947ms total)
T25FC 009:257 JLINK_ReadMem (0x2000001C, 0x0004 Bytes, ...) -- CPU is running -- CPU_ReadMem(4 bytes @ 0x2000001C) - Data: 02 00 00 00  returns 0x00 (0000ms, 0947ms total)
T25FC 009:258 JLINK_ReadMem (0x20000018, 0x0004 Bytes, ...) -- CPU is running -- CPU_ReadMem(4 bytes @ 0x20000018) - Data: 02 00 00 00  returns 0x00 (0001ms, 0948ms total)
T25FC 009:259 JLINK_ReadMem (0x20000030, 0x0001 Bytes, ...) -- CPU is running -- CPU_ReadMem(1 bytes @ 0x20000030) - Data: 02  returns 0x00 (0002ms, 0950ms total)
T25FC 009:261 JLINK_ReadMem (0x40021000, 0x0034 Bytes, ...) -- CPU is running -- CPU_ReadMem(52 bytes @ 0x40021000) - Data: 83 58 00 00 00 00 00 00 00 00 00 00 00 00 00 00 ...  returns 0x00 (0001ms, 0951ms total)
T25FC 009:262 JLINK_ReadMem (0x40021034, 0x0004 Bytes, ...) -- CPU is running -- CPU_ReadMem(4 bytes @ 0x40021034) - Data: 80 77 00 96  returns 0x00 (0000ms, 0951ms total)
T25FC 009:263 JLINK_ReadMem (0x40012C00, 0x0010 Bytes, ...) -- CPU is running -- CPU_ReadMem(16 bytes @ 0x40012C00) - Data: 01 00 00 00 20 00 00 00 00 00 00 00 01 00 00 00  returns 0x00 (0001ms, 0953ms total)
T25FC 009:264 JLINK_ReadMem (0x40012C10, 0x0004 Bytes, ...) -- CPU is running -- CPU_ReadMem(4 bytes @ 0x40012C10) - Data: 1E 00 00 00  returns 0x00 (0001ms, 0954ms total)
T25FC 009:265 JLINK_ReadMem (0x40012C18, 0x0034 Bytes, ...) -- CPU is running -- CPU_ReadMem(52 bytes @ 0x40012C18) - Data: 00 00 00 00 00 00 00 00 00 00 00 00 B7 03 00 00 ...  returns 0x00 (0001ms, 0955ms total)
T25FC 009:266 JLINK_ReadMem (0x40012C4C, 0x0004 Bytes, ...) -- CPU is running -- CPU_ReadMem(4 bytes @ 0x40012C4C) - Data: 01 00 00 00  returns 0x00 (0000ms, 0955ms total)
T25FC 009:267 JLINK_ReadMem (0x40006400, 0x001C Bytes, ...) -- CPU is running -- CPU_ReadMem(28 bytes @ 0x40006400) - Data: 40 00 01 00 00 0C 00 00 00 00 00 1C 00 00 00 00 ...  returns 0x00 (0001ms, 0956ms total)
T25FC 009:268 JLINK_ReadMem (0x4000641C, 0x0004 Bytes, ...) -- CPU is running -- CPU_ReadMem(4 bytes @ 0x4000641C) - Data: 07 00 23 00  returns 0x00 (0000ms, 0956ms total)
T25FC 009:268 JLINK_ReadMem (0x40006580, 0x004C Bytes, ...) -- CPU is running -- CPU_ReadMem(76 bytes @ 0x40006580) - Data: 00 00 E0 EE 18 1E 75 49 70 13 FB 05 07 B3 00 00 ...  returns 0x00 (0001ms, 0957ms total)
T25FC 009:269 JLINK_ReadMem (0x400065CC, 0x0004 Bytes, ...) -- CPU is running -- CPU_ReadMem(4 bytes @ 0x400065CC) - Data: 07 F3 0D 45  returns 0x00 (0000ms, 0957ms total)
T25FC 009:269 JLINK_ReadMem (0x40006600, 0x0004 Bytes, ...) -- CPU is running -- CPU_ReadMem(4 bytes @ 0x40006600) - Data: 00 0E 1C 2A  returns 0x00 (0001ms, 0958ms total)
T25FC 009:270 JLINK_ReadMem (0x40006604, 0x0004 Bytes, ...) -- CPU is running -- CPU_ReadMem(4 bytes @ 0x40006604) - Data: 02 00 00 00  returns 0x00 (0000ms, 0958ms total)
T25FC 009:270 JLINK_ReadMem (0x4000660C, 0x0004 Bytes, ...) -- CPU is running -- CPU_ReadMem(4 bytes @ 0x4000660C) - Data: 00 00 00 00  returns 0x00 (0001ms, 0959ms total)
T25FC 009:271 JLINK_ReadMem (0x40006614, 0x0004 Bytes, ...) -- CPU is running -- CPU_ReadMem(4 bytes @ 0x40006614) - Data: 00 00 00 00  returns 0x00 (0000ms, 0959ms total)
T25FC 009:271 JLINK_ReadMem (0x4000661C, 0x0004 Bytes, ...) -- CPU is running -- CPU_ReadMem(4 bytes @ 0x4000661C) - Data: 02 00 00 00  returns 0x00 (0002ms, 0961ms total)
T25FC 009:273 JLINK_ReadMem (0x40006640, 0x00DC Bytes, ...) -- CPU is running -- CPU_ReadMem(220 bytes @ 0x40006640) - Data: EA A1 0A DA 58 18 10 59 00 48 00 4C 00 46 00 4A ...  returns 0x00 (0002ms, 0963ms total)
T25FC 009:275 JLINK_ReadMem (0x4000671C, 0x0004 Bytes, ...) -- CPU is running -- CPU_ReadMem(4 bytes @ 0x4000671C) - Data: 2E 9D 12 86  returns 0x00 (0000ms, 0963ms total)
T25FC 009:306 JLINK_ReadMem (0x40012400, 0x0014 Bytes, ...) -- CPU is running -- CPU_ReadMem(20 bytes @ 0x40012400) - Data: 01 00 00 00 04 00 00 00 01 00 00 00 00 00 00 00 ...  returns 0x00 (0000ms, 0963ms total)
T25FC 009:306 JLINK_ReadMem (0x40012414, 0x0004 Bytes, ...) -- CPU is running -- CPU_ReadMem(4 bytes @ 0x40012414) - Data: 07 00 00 00  returns 0x00 (0002ms, 0965ms total)
T25FC 009:308 JLINK_ReadMem (0x40012420, 0x0004 Bytes, ...) -- CPU is running -- CPU_ReadMem(4 bytes @ 0x40012420) - Data: 00 00 FF 0F  returns 0x00 (0000ms, 0965ms total)
T25FC 009:308 JLINK_ReadMem (0x40012428, 0x0004 Bytes, ...) -- CPU is running -- CPU_ReadMem(4 bytes @ 0x40012428) - Data: 18 00 00 00  returns 0x00 (0001ms, 0966ms total)
T25FC 009:309 JLINK_ReadMem (0x40012440, 0x0004 Bytes, ...) -- CPU is running -- CPU_ReadMem(4 bytes @ 0x40012440) - Data: B6 07 00 00  returns 0x00 (0000ms, 0966ms total)
T25FC 009:309 JLINK_ReadMem (0x40012708, 0x0004 Bytes, ...) -- CPU is running -- CPU_ReadMem(4 bytes @ 0x40012708) - Data: 00 00 00 00  returns 0x00 (0001ms, 0967ms total)
T25FC 009:357 JLINK_ReadMem (0x40015800, 0x000C Bytes, ...) -- CPU is running -- CPU_ReadMem(12 bytes @ 0x40015800) - Data: 45 64 00 10 00 00 00 00 00 00 00 00  returns 0x00 (0001ms, 0968ms total)
T25FC 009:358 JLINK_ReadMem (0x4001580C, 0x0004 Bytes, ...) -- CPU is running -- CPU_ReadMem(4 bytes @ 0x4001580C) - Data: 00 00 00 00  returns 0x00 (0001ms, 0969ms total)
T25FC 009:359 JLINK_ReadMem (0x40010000, 0x0004 Bytes, ...) -- CPU is running -- CPU_ReadMem(4 bytes @ 0x40010000) - Data: 10 00 00 00  returns 0x00 (0000ms, 0969ms total)
T25FC 009:359 JLINK_ReadMem (0x40010008, 0x0010 Bytes, ...) -- CPU is running -- CPU_ReadMem(16 bytes @ 0x40010008) - Data: 00 00 00 00 00 00 00 00 00 00 00 00 00 00 00 00  returns 0x00 (0001ms, 0970ms total)
T25FC 009:360 JLINK_ReadMem (0x40010018, 0x0004 Bytes, ...) -- CPU is running -- CPU_ReadMem(4 bytes @ 0x40010018) - Data: 00 00 00 00  returns 0x00 (0000ms, 0970ms total)
T0EA0 009:361 JLINK_IsHalted()  returns FALSE (0001ms, 0971ms total)
T0EA0 009:463 JLINK_IsHalted()  returns FALSE (0000ms, 0970ms total)
T0EA0 009:564 JLINK_IsHalted()  returns FALSE (0000ms, 0970ms total)
T0EA0 009:665 JLINK_IsHalted()  returns FALSE (0000ms, 0970ms total)
T0EA0 009:766 JLINK_IsHalted()  returns FALSE (0000ms, 0970ms total)
T25FC 009:868 JLINK_ReadMem (0x20000014, 0x0002 Bytes, ...) -- CPU is running -- CPU_ReadMem(2 bytes @ 0x20000014) - Data: 00 00  returns 0x00 (0000ms, 0970ms total)
T25FC 009:868 JLINK_ReadMem (0x20000016, 0x0002 Bytes, ...) -- CPU is running -- CPU_ReadMem(2 bytes @ 0x20000016) - Data: 00 00  returns 0x00 (0001ms, 0971ms total)
T25FC 009:869 JLINK_ReadMem (0x2000001C, 0x0004 Bytes, ...) -- CPU is running -- CPU_ReadMem(4 bytes @ 0x2000001C) - Data: 04 00 00 00  returns 0x00 (0000ms, 0971ms total)
T25FC 009:870 JLINK_ReadMem (0x20000018, 0x0004 Bytes, ...) -- CPU is running -- CPU_ReadMem(4 bytes @ 0x20000018) - Data: 04 00 00 00  returns 0x00 (0001ms, 0972ms total)
T25FC 009:871 JLINK_ReadMem (0x20000030, 0x0001 Bytes, ...) -- CPU is running -- CPU_ReadMem(1 bytes @ 0x20000030) - Data: 04  returns 0x00 (0001ms, 0973ms total)
T25FC 009:872 JLINK_ReadMem (0x40021000, 0x0034 Bytes, ...) -- CPU is running -- CPU_ReadMem(52 bytes @ 0x40021000) - Data: 83 58 00 00 00 00 00 00 00 00 00 00 00 00 00 00 ...  returns 0x00 (0001ms, 0974ms total)
T25FC 009:873 JLINK_ReadMem (0x40021034, 0x0004 Bytes, ...) -- CPU is running -- CPU_ReadMem(4 bytes @ 0x40021034) - Data: 80 77 00 96  returns 0x00 (0000ms, 0974ms total)
T25FC 009:874 JLINK_ReadMem (0x40012C00, 0x0010 Bytes, ...) -- CPU is running -- CPU_ReadMem(16 bytes @ 0x40012C00) - Data: 01 00 00 00 20 00 00 00 00 00 00 00 01 00 00 00  returns 0x00 (0000ms, 0974ms total)
T25FC 009:874 JLINK_ReadMem (0x40012C10, 0x0004 Bytes, ...) -- CPU is running -- CPU_ReadMem(4 bytes @ 0x40012C10) - Data: 1E 00 00 00  returns 0x00 (0001ms, 0975ms total)
T25FC 009:875 JLINK_ReadMem (0x40012C18, 0x0034 Bytes, ...) -- CPU is running -- CPU_ReadMem(52 bytes @ 0x40012C18) - Data: 00 00 00 00 00 00 00 00 00 00 00 00 43 03 00 00 ...  returns 0x00 (0001ms, 0976ms total)
T25FC 009:876 JLINK_ReadMem (0x40012C4C, 0x0004 Bytes, ...) -- CPU is running -- CPU_ReadMem(4 bytes @ 0x40012C4C) - Data: 01 00 00 00  returns 0x00 (0000ms, 0976ms total)
T25FC 009:877 JLINK_ReadMem (0x40006400, 0x001C Bytes, ...) -- CPU is running -- CPU_ReadMem(28 bytes @ 0x40006400) - Data: 40 00 01 00 00 0C 00 00 00 00 00 1C 00 00 00 00 ...  returns 0x00 (0001ms, 0977ms total)
T25FC 009:878 JLINK_ReadMem (0x4000641C, 0x0004 Bytes, ...) -- CPU is running -- CPU_ReadMem(4 bytes @ 0x4000641C) - Data: 07 00 23 00  returns 0x00 (0000ms, 0977ms total)
T25FC 009:878 JLINK_ReadMem (0x40006580, 0x004C Bytes, ...) -- CPU is running -- CPU_ReadMem(76 bytes @ 0x40006580) - Data: 00 00 E0 EE 18 1E 75 49 70 13 FB 05 07 B3 00 00 ...  returns 0x00 (0001ms, 0978ms total)
T25FC 009:879 JLINK_ReadMem (0x400065CC, 0x0004 Bytes, ...) -- CPU is running -- CPU_ReadMem(4 bytes @ 0x400065CC) - Data: 07 F3 0D 45  returns 0x00 (0001ms, 0979ms total)
T25FC 009:880 JLINK_ReadMem (0x40006600, 0x0004 Bytes, ...) -- CPU is running -- CPU_ReadMem(4 bytes @ 0x40006600) - Data: 00 0E 1C 2A  returns 0x00 (0000ms, 0979ms total)
T25FC 009:880 JLINK_ReadMem (0x40006604, 0x0004 Bytes, ...) -- CPU is running -- CPU_ReadMem(4 bytes @ 0x40006604) - Data: 02 00 00 00  returns 0x00 (0001ms, 0980ms total)
T25FC 009:881 JLINK_ReadMem (0x4000660C, 0x0004 Bytes, ...) -- CPU is running -- CPU_ReadMem(4 bytes @ 0x4000660C) - Data: 00 00 00 00  returns 0x00 (0000ms, 0980ms total)
T25FC 009:881 JLINK_ReadMem (0x40006614, 0x0004 Bytes, ...) -- CPU is running -- CPU_ReadMem(4 bytes @ 0x40006614) - Data: 00 00 00 00  returns 0x00 (0001ms, 0981ms total)
T25FC 009:882 JLINK_ReadMem (0x4000661C, 0x0004 Bytes, ...) -- CPU is running -- CPU_ReadMem(4 bytes @ 0x4000661C) - Data: 02 00 00 00  returns 0x00 (0000ms, 0981ms total)
T25FC 009:882 JLINK_ReadMem (0x40006640, 0x00DC Bytes, ...) -- CPU is running -- CPU_ReadMem(220 bytes @ 0x40006640) - Data: EA A1 0A DA 58 18 10 59 00 48 00 4C 00 46 00 4A ...  returns 0x00 (0003ms, 0984ms total)
T25FC 009:885 JLINK_ReadMem (0x4000671C, 0x0004 Bytes, ...) -- CPU is running -- CPU_ReadMem(4 bytes @ 0x4000671C) - Data: 2E 9D 12 86  returns 0x00 (0000ms, 0984ms total)
T25FC 009:888 JLINK_ReadMem (0x40012400, 0x0014 Bytes, ...) -- CPU is running -- CPU_ReadMem(20 bytes @ 0x40012400) - Data: 01 00 00 00 04 00 00 00 01 00 00 00 00 00 00 00 ...  returns 0x00 (0001ms, 0985ms total)
T25FC 009:889 JLINK_ReadMem (0x40012414, 0x0004 Bytes, ...) -- CPU is running -- CPU_ReadMem(4 bytes @ 0x40012414) - Data: 07 00 00 00  returns 0x00 (0001ms, 0986ms total)
T25FC 009:890 JLINK_ReadMem (0x40012420, 0x0004 Bytes, ...) -- CPU is running -- CPU_ReadMem(4 bytes @ 0x40012420) - Data: 00 00 FF 0F  returns 0x00 (0000ms, 0986ms total)
T25FC 009:890 JLINK_ReadMem (0x40012428, 0x0004 Bytes, ...) -- CPU is running -- CPU_ReadMem(4 bytes @ 0x40012428) - Data: 18 00 00 00  returns 0x00 (0000ms, 0986ms total)
T25FC 009:890 JLINK_ReadMem (0x40012440, 0x0004 Bytes, ...) -- CPU is running -- CPU_ReadMem(4 bytes @ 0x40012440) - Data: AF 07 00 00  returns 0x00 (0001ms, 0987ms total)
T25FC 009:891 JLINK_ReadMem (0x40012708, 0x0004 Bytes, ...) -- CPU is running -- CPU_ReadMem(4 bytes @ 0x40012708) - Data: 00 00 00 00  returns 0x00 (0000ms, 0987ms total)
T25FC 009:897 JLINK_ReadMem (0x40015800, 0x000C Bytes, ...) -- CPU is running -- CPU_ReadMem(12 bytes @ 0x40015800) - Data: 45 64 00 10 00 00 00 00 00 00 00 00  returns 0x00 (0001ms, 0988ms total)
T25FC 009:898 JLINK_ReadMem (0x4001580C, 0x0004 Bytes, ...) -- CPU is running -- CPU_ReadMem(4 bytes @ 0x4001580C) - Data: 00 00 00 00  returns 0x00 (0000ms, 0988ms total)
T25FC 009:899 JLINK_ReadMem (0x40010000, 0x0004 Bytes, ...) -- CPU is running -- CPU_ReadMem(4 bytes @ 0x40010000) - Data: 10 00 00 00  returns 0x00 (0000ms, 0988ms total)
T25FC 009:899 JLINK_ReadMem (0x40010008, 0x0010 Bytes, ...) -- CPU is running -- CPU_ReadMem(16 bytes @ 0x40010008) - Data: 00 00 00 00 00 00 00 00 00 00 00 00 00 00 00 00  returns 0x00 (0001ms, 0989ms total)
T25FC 009:900 JLINK_ReadMem (0x40010018, 0x0004 Bytes, ...) -- CPU is running -- CPU_ReadMem(4 bytes @ 0x40010018) - Data: 00 00 00 00  returns 0x00 (0001ms, 0990ms total)
T0EA0 009:901 JLINK_IsHalted()  returns FALSE (0000ms, 0990ms total)
T0EA0 010:002 JLINK_IsHalted()  returns FALSE (0001ms, 0991ms total)
T0EA0 010:104 JLINK_IsHalted()  returns FALSE (0000ms, 0990ms total)
T0EA0 010:205 JLINK_IsHalted()  returns FALSE (0000ms, 0990ms total)
T0EA0 010:306 JLINK_IsHalted()  returns FALSE (0000ms, 0990ms total)
T25FC 010:407 JLINK_ReadMem (0x20000014, 0x0002 Bytes, ...) -- CPU is running -- CPU_ReadMem(2 bytes @ 0x20000014) - Data: 00 00  returns 0x00 (0000ms, 0990ms total)
T25FC 010:407 JLINK_ReadMem (0x20000016, 0x0002 Bytes, ...) -- CPU is running -- CPU_ReadMem(2 bytes @ 0x20000016) - Data: 00 00  returns 0x00 (0001ms, 0991ms total)
T25FC 010:408 JLINK_ReadMem (0x2000001C, 0x0004 Bytes, ...) -- CPU is running -- CPU_ReadMem(4 bytes @ 0x2000001C) - Data: 06 00 00 00  returns 0x00 (0001ms, 0992ms total)
T25FC 010:410 JLINK_ReadMem (0x20000018, 0x0004 Bytes, ...) -- CPU is running -- CPU_ReadMem(4 bytes @ 0x20000018) - Data: 06 00 00 00  returns 0x00 (0000ms, 0992ms total)
T25FC 010:411 JLINK_ReadMem (0x20000030, 0x0001 Bytes, ...) -- CPU is running -- CPU_ReadMem(1 bytes @ 0x20000030) - Data: 06  returns 0x00 (0001ms, 0993ms total)
T25FC 010:412 JLINK_ReadMem (0x40021000, 0x0034 Bytes, ...) -- CPU is running -- CPU_ReadMem(52 bytes @ 0x40021000) - Data: 83 58 00 00 00 00 00 00 00 00 00 00 00 00 00 00 ...  returns 0x00 (0001ms, 0994ms total)
T25FC 010:413 JLINK_ReadMem (0x40021034, 0x0004 Bytes, ...) -- CPU is running -- CPU_ReadMem(4 bytes @ 0x40021034) - Data: 80 77 00 96  returns 0x00 (0001ms, 0995ms total)
T25FC 010:414 JLINK_ReadMem (0x40012C00, 0x0010 Bytes, ...) -- CPU is running -- CPU_ReadMem(16 bytes @ 0x40012C00) - Data: 01 00 00 00 20 00 00 00 00 00 00 00 01 00 00 00  returns 0x00 (0001ms, 0996ms total)
T25FC 010:415 JLINK_ReadMem (0x40012C10, 0x0004 Bytes, ...) -- CPU is running -- CPU_ReadMem(4 bytes @ 0x40012C10) - Data: 1E 00 00 00  returns 0x00 (0000ms, 0996ms total)
T25FC 010:415 JLINK_ReadMem (0x40012C18, 0x0034 Bytes, ...) -- CPU is running -- CPU_ReadMem(52 bytes @ 0x40012C18) - Data: 00 00 00 00 00 00 00 00 00 00 00 00 9B 00 00 00 ...  returns 0x00 (0001ms, 0997ms total)
T25FC 010:416 JLINK_ReadMem (0x40012C4C, 0x0004 Bytes, ...) -- CPU is running -- CPU_ReadMem(4 bytes @ 0x40012C4C) - Data: 01 00 00 00  returns 0x00 (0001ms, 0998ms total)
T25FC 010:417 JLINK_ReadMem (0x40006400, 0x001C Bytes, ...) -- CPU is running -- CPU_ReadMem(28 bytes @ 0x40006400) - Data: 40 00 01 00 00 0C 00 00 00 00 00 1C 00 00 00 00 ...  returns 0x00 (0001ms, 0999ms total)
T25FC 010:418 JLINK_ReadMem (0x4000641C, 0x0004 Bytes, ...) -- CPU is running -- CPU_ReadMem(4 bytes @ 0x4000641C) - Data: 07 00 23 00  returns 0x00 (0000ms, 0999ms total)
T25FC 010:418 JLINK_ReadMem (0x40006580, 0x004C Bytes, ...) -- CPU is running -- CPU_ReadMem(76 bytes @ 0x40006580) - Data: 00 00 E0 EE 18 1E 75 49 70 13 FB 05 07 B3 00 00 ...  returns 0x00 (0002ms, 1001ms total)
T25FC 010:420 JLINK_ReadMem (0x400065CC, 0x0004 Bytes, ...) -- CPU is running -- CPU_ReadMem(4 bytes @ 0x400065CC) - Data: 07 F3 0D 45  returns 0x00 (0000ms, 1001ms total)
T25FC 010:420 JLINK_ReadMem (0x40006600, 0x0004 Bytes, ...) -- CPU is running -- CPU_ReadMem(4 bytes @ 0x40006600) - Data: 00 0E 1C 2A  returns 0x00 (0001ms, 1002ms total)
T25FC 010:421 JLINK_ReadMem (0x40006604, 0x0004 Bytes, ...) -- CPU is running -- CPU_ReadMem(4 bytes @ 0x40006604) - Data: 02 00 00 00  returns 0x00 (0000ms, 1002ms total)
T25FC 010:421 JLINK_ReadMem (0x4000660C, 0x0004 Bytes, ...) -- CPU is running -- CPU_ReadMem(4 bytes @ 0x4000660C) - Data: 00 00 00 00  returns 0x00 (0001ms, 1003ms total)
T25FC 010:422 JLINK_ReadMem (0x40006614, 0x0004 Bytes, ...) -- CPU is running -- CPU_ReadMem(4 bytes @ 0x40006614) - Data: 00 00 00 00  returns 0x00 (0000ms, 1003ms total)
T25FC 010:422 JLINK_ReadMem (0x4000661C, 0x0004 Bytes, ...) -- CPU is running -- CPU_ReadMem(4 bytes @ 0x4000661C) - Data: 02 00 00 00  returns 0x00 (0001ms, 1004ms total)
T25FC 010:423 JLINK_ReadMem (0x40006640, 0x00DC Bytes, ...) -- CPU is running -- CPU_ReadMem(220 bytes @ 0x40006640) - Data: EA A1 0A DA 58 18 10 59 00 48 00 4C 00 46 00 4A ...  returns 0x00 (0002ms, 1006ms total)
T25FC 010:425 JLINK_ReadMem (0x4000671C, 0x0004 Bytes, ...) -- CPU is running -- CPU_ReadMem(4 bytes @ 0x4000671C) - Data: 2E 9D 12 86  returns 0x00 (0000ms, 1006ms total)
T25FC 010:429 JLINK_ReadMem (0x40012400, 0x0014 Bytes, ...) -- CPU is running -- CPU_ReadMem(20 bytes @ 0x40012400) - Data: 01 00 00 00 04 00 00 00 01 00 00 00 00 00 00 00 ...  returns 0x00 (0000ms, 1006ms total)
T25FC 010:429 JLINK_ReadMem (0x40012414, 0x0004 Bytes, ...) -- CPU is running -- CPU_ReadMem(4 bytes @ 0x40012414) - Data: 07 00 00 00  returns 0x00 (0001ms, 1007ms total)
T25FC 010:430 JLINK_ReadMem (0x40012420, 0x0004 Bytes, ...) -- CPU is running -- CPU_ReadMem(4 bytes @ 0x40012420) - Data: 00 00 FF 0F  returns 0x00 (0000ms, 1007ms total)
T25FC 010:430 JLINK_ReadMem (0x40012428, 0x0004 Bytes, ...) -- CPU is running -- CPU_ReadMem(4 bytes @ 0x40012428) - Data: 18 00 00 00  returns 0x00 (0001ms, 1008ms total)
T25FC 010:431 JLINK_ReadMem (0x40012440, 0x0004 Bytes, ...) -- CPU is running -- CPU_ReadMem(4 bytes @ 0x40012440) - Data: B6 07 00 00  returns 0x00 (0000ms, 1008ms total)
T25FC 010:431 JLINK_ReadMem (0x40012708, 0x0004 Bytes, ...) -- CPU is running -- CPU_ReadMem(4 bytes @ 0x40012708) - Data: 00 00 00 00  returns 0x00 (0001ms, 1009ms total)
T25FC 010:438 JLINK_ReadMem (0x40015800, 0x000C Bytes, ...) -- CPU is running -- CPU_ReadMem(12 bytes @ 0x40015800) - Data: 45 64 00 10 00 00 00 00 00 00 00 00  returns 0x00 (0000ms, 1009ms total)
T25FC 010:438 JLINK_ReadMem (0x4001580C, 0x0004 Bytes, ...) -- CPU is running -- CPU_ReadMem(4 bytes @ 0x4001580C) - Data: 00 00 00 00  returns 0x00 (0001ms, 1010ms total)
T25FC 010:439 JLINK_ReadMem (0x40010000, 0x0004 Bytes, ...) -- CPU is running -- CPU_ReadMem(4 bytes @ 0x40010000) - Data: 10 00 00 00  returns 0x00 (0000ms, 1010ms total)
T25FC 010:439 JLINK_ReadMem (0x40010008, 0x0010 Bytes, ...) -- CPU is running -- CPU_ReadMem(16 bytes @ 0x40010008) - Data: 00 00 00 00 00 00 00 00 00 00 00 00 00 00 00 00  returns 0x00 (0002ms, 1012ms total)
T25FC 010:441 JLINK_ReadMem (0x40010018, 0x0004 Bytes, ...) -- CPU is running -- CPU_ReadMem(4 bytes @ 0x40010018) - Data: 00 00 00 00  returns 0x00 (0000ms, 1012ms total)
T0EA0 010:441 JLINK_IsHalted()  returns FALSE (0001ms, 1013ms total)
T0EA0 010:542 JLINK_IsHalted()  returns FALSE (0000ms, 1012ms total)
T0EA0 010:643 JLINK_IsHalted()  returns FALSE (0000ms, 1012ms total)
T0EA0 010:743 JLINK_IsHalted()  returns FALSE (0000ms, 1012ms total)
T0EA0 010:844 JLINK_IsHalted()  returns FALSE (0001ms, 1013ms total)
T25FC 010:947 JLINK_ReadMem (0x20000014, 0x0002 Bytes, ...) -- CPU is running -- CPU_ReadMem(2 bytes @ 0x20000014) - Data: 00 00  returns 0x00 (0000ms, 1012ms total)
T25FC 010:947 JLINK_ReadMem (0x20000016, 0x0002 Bytes, ...) -- CPU is running -- CPU_ReadMem(2 bytes @ 0x20000016) - Data: 00 00  returns 0x00 (0001ms, 1013ms total)
T25FC 010:948 JLINK_ReadMem (0x2000001C, 0x0004 Bytes, ...) -- CPU is running -- CPU_ReadMem(4 bytes @ 0x2000001C) - Data: 07 00 00 00  returns 0x00 (0000ms, 1013ms total)
T25FC 010:949 JLINK_ReadMem (0x20000018, 0x0004 Bytes, ...) -- CPU is running -- CPU_ReadMem(4 bytes @ 0x20000018) - Data: 07 00 00 00  returns 0x00 (0001ms, 1014ms total)
T25FC 010:950 JLINK_ReadMem (0x20000030, 0x0001 Bytes, ...) -- CPU is running -- CPU_ReadMem(1 bytes @ 0x20000030) - Data: 07  returns 0x00 (0001ms, 1015ms total)
T25FC 010:951 JLINK_ReadMem (0x40021000, 0x0034 Bytes, ...) -- CPU is running -- CPU_ReadMem(52 bytes @ 0x40021000) - Data: 83 58 00 00 00 00 00 00 00 00 00 00 00 00 00 00 ...  returns 0x00 (0001ms, 1016ms total)
T25FC 010:952 JLINK_ReadMem (0x40021034, 0x0004 Bytes, ...) -- CPU is running -- CPU_ReadMem(4 bytes @ 0x40021034) - Data: 80 77 00 96  returns 0x00 (0001ms, 1017ms total)
T25FC 010:953 JLINK_ReadMem (0x40012C00, 0x0010 Bytes, ...) -- CPU is running -- CPU_ReadMem(16 bytes @ 0x40012C00) - Data: 01 00 00 00 20 00 00 00 00 00 00 00 01 00 00 00  returns 0x00 (0001ms, 1018ms total)
T25FC 010:954 JLINK_ReadMem (0x40012C10, 0x0004 Bytes, ...) -- CPU is running -- CPU_ReadMem(4 bytes @ 0x40012C10) - Data: 1E 00 00 00  returns 0x00 (0000ms, 1018ms total)
T25FC 010:954 JLINK_ReadMem (0x40012C18, 0x0034 Bytes, ...) -- CPU is running -- CPU_ReadMem(52 bytes @ 0x40012C18) - Data: 00 00 00 00 00 00 00 00 00 00 00 00 D2 01 00 00 ...  returns 0x00 (0001ms, 1019ms total)
T25FC 010:955 JLINK_ReadMem (0x40012C4C, 0x0004 Bytes, ...) -- CPU is running -- CPU_ReadMem(4 bytes @ 0x40012C4C) - Data: 01 00 00 00  returns 0x00 (0001ms, 1020ms total)
T25FC 010:957 JLINK_ReadMem (0x40006400, 0x001C Bytes, ...) -- CPU is running -- CPU_ReadMem(28 bytes @ 0x40006400) - Data: 40 00 01 00 00 0C 00 00 00 00 00 1C 00 00 00 00 ...  returns 0x00 (0000ms, 1020ms total)
T25FC 010:957 JLINK_ReadMem (0x4000641C, 0x0004 Bytes, ...) -- CPU is running -- CPU_ReadMem(4 bytes @ 0x4000641C) - Data: 07 00 23 00  returns 0x00 (0001ms, 1021ms total)
T25FC 010:958 JLINK_ReadMem (0x40006580, 0x004C Bytes, ...) -- CPU is running -- CPU_ReadMem(76 bytes @ 0x40006580) - Data: 00 00 E0 EE 18 1E 75 49 70 13 FB 05 07 B3 00 00 ...  returns 0x00 (0001ms, 1022ms total)
T25FC 010:959 JLINK_ReadMem (0x400065CC, 0x0004 Bytes, ...) -- CPU is running -- CPU_ReadMem(4 bytes @ 0x400065CC) - Data: 07 F3 0D 45  returns 0x00 (0000ms, 1022ms total)
T25FC 010:960 JLINK_ReadMem (0x40006600, 0x0004 Bytes, ...) -- CPU is running -- CPU_ReadMem(4 bytes @ 0x40006600) - Data: 00 0E 1C 2A  returns 0x00 (0000ms, 1022ms total)
T25FC 010:961 JLINK_ReadMem (0x40006604, 0x0004 Bytes, ...) -- CPU is running -- CPU_ReadMem(4 bytes @ 0x40006604) - Data: 02 00 00 00  returns 0x00 (0000ms, 1022ms total)
T25FC 010:961 JLINK_ReadMem (0x4000660C, 0x0004 Bytes, ...) -- CPU is running -- CPU_ReadMem(4 bytes @ 0x4000660C) - Data: 00 00 00 00  returns 0x00 (0001ms, 1023ms total)
T25FC 010:962 JLINK_ReadMem (0x40006614, 0x0004 Bytes, ...) -- CPU is running -- CPU_ReadMem(4 bytes @ 0x40006614) - Data: 00 00 00 00  returns 0x00 (0000ms, 1023ms total)
T25FC 010:962 JLINK_ReadMem (0x4000661C, 0x0004 Bytes, ...) -- CPU is running -- CPU_ReadMem(4 bytes @ 0x4000661C) - Data: 02 00 00 00  returns 0x00 (0001ms, 1024ms total)
T25FC 010:963 JLINK_ReadMem (0x40006640, 0x00DC Bytes, ...) -- CPU is running -- CPU_ReadMem(220 bytes @ 0x40006640) - Data: EA A1 0A DA 58 18 10 59 00 48 00 4C 00 46 00 4A ...  returns 0x00 (0002ms, 1026ms total)
T25FC 010:965 JLINK_ReadMem (0x4000671C, 0x0004 Bytes, ...) -- CPU is running -- CPU_ReadMem(4 bytes @ 0x4000671C) - Data: 2E 9D 12 86  returns 0x00 (0000ms, 1026ms total)
T25FC 010:968 JLINK_ReadMem (0x40012400, 0x0014 Bytes, ...) -- CPU is running -- CPU_ReadMem(20 bytes @ 0x40012400) - Data: 01 00 00 00 04 00 00 00 01 00 00 00 00 00 00 00 ...  returns 0x00 (0001ms, 1027ms total)
T25FC 010:969 JLINK_ReadMem (0x40012414, 0x0004 Bytes, ...) -- CPU is running -- CPU_ReadMem(4 bytes @ 0x40012414) - Data: 07 00 00 00  returns 0x00 (0001ms, 1028ms total)
T25FC 010:970 JLINK_ReadMem (0x40012420, 0x0004 Bytes, ...) -- CPU is running -- CPU_ReadMem(4 bytes @ 0x40012420) - Data: 00 00 FF 0F  returns 0x00 (0000ms, 1028ms total)
T25FC 010:970 JLINK_ReadMem (0x40012428, 0x0004 Bytes, ...) -- CPU is running -- CPU_ReadMem(4 bytes @ 0x40012428) - Data: 18 00 00 00  returns 0x00 (0001ms, 1029ms total)
T25FC 010:971 JLINK_ReadMem (0x40012440, 0x0004 Bytes, ...) -- CPU is running -- CPU_ReadMem(4 bytes @ 0x40012440) - Data: B1 07 00 00  returns 0x00 (0000ms, 1029ms total)
T25FC 010:971 JLINK_ReadMem (0x40012708, 0x0004 Bytes, ...) -- CPU is running -- CPU_ReadMem(4 bytes @ 0x40012708) - Data: 00 00 00 00  returns 0x00 (0001ms, 1030ms total)
T25FC 010:980 JLINK_ReadMem (0x40015800, 0x000C Bytes, ...) -- CPU is running -- CPU_ReadMem(12 bytes @ 0x40015800) - Data: 45 64 00 10 00 00 00 00 00 00 00 00  returns 0x00 (0000ms, 1030ms total)
T25FC 010:980 JLINK_ReadMem (0x4001580C, 0x0004 Bytes, ...) -- CPU is running -- CPU_ReadMem(4 bytes @ 0x4001580C) - Data: 00 00 00 00  returns 0x00 (0000ms, 1030ms total)
T25FC 010:980 JLINK_ReadMem (0x40010000, 0x0004 Bytes, ...) -- CPU is running -- CPU_ReadMem(4 bytes @ 0x40010000) - Data: 10 00 00 00  returns 0x00 (0001ms, 1031ms total)
T25FC 010:981 JLINK_ReadMem (0x40010008, 0x0010 Bytes, ...) -- CPU is running -- CPU_ReadMem(16 bytes @ 0x40010008) - Data: 00 00 00 00 00 00 00 00 00 00 00 00 00 00 00 00  returns 0x00 (0000ms, 1031ms total)
T25FC 010:981 JLINK_ReadMem (0x40010018, 0x0004 Bytes, ...) -- CPU is running -- CPU_ReadMem(4 bytes @ 0x40010018) - Data: 00 00 00 00  returns 0x00 (0001ms, 1032ms total)
T0EA0 010:982 JLINK_IsHalted()  returns FALSE (0000ms, 1032ms total)
T0EA0 011:084 JLINK_IsHalted()  returns FALSE (0000ms, 1032ms total)
T0EA0 011:185 JLINK_IsHalted()  returns FALSE (0000ms, 1032ms total)
T0EA0 011:286 JLINK_IsHalted()  returns FALSE (0000ms, 1032ms total)
T0EA0 011:387 JLINK_IsHalted()  returns FALSE (0000ms, 1032ms total)
T25FC 011:487 JLINK_ReadMem (0x20000014, 0x0002 Bytes, ...) -- CPU is running -- CPU_ReadMem(2 bytes @ 0x20000014) - Data: 00 00  returns 0x00 (0000ms, 1032ms total)
